
**** 02/11/08 14:34:28 ******* PSpice 10.5.0 (Jan 2005) ******* ID# 2089878865 
 ** Profile: "SCHEMATIC1-freq_response"  [ F:\PT8616\PSpice\LTC_filter\ltc_filter_test-pspicefiles\schematic1\freq_response.sim ] 


 ****     CIRCUIT DESCRIPTION


******************************************************************************




** Creating circuit file "freq_response.cir" 
** WARNING: THIS AUTOMATICALLY GENERATED FILE MAY BE OVERWRITTEN BY SUBSEQUENT SIMULATIONS

*Libraries: 
* Profile Libraries :
* Local Libraries :
* From [PSPICE NETLIST] section of C:\OrCAD\OrCAD_10.5\tools\PSpice\PSpice.ini file:
.lib "nom.lib" 

*Analysis directives: 
.AC DEC 10 10 20000
.PROBE V(alias(*)) I(alias(*)) W(alias(*)) D(alias(*)) NOISE(alias(*)) 
.INC "..\SCHEMATIC1.net" 



**** INCLUDING SCHEMATIC1.net ****
* source LTC_FILTER_TEST
C_C2         OUT N00496  1n  
V_V1         IN 0 DC 0Vdc AC 3.3Vac 
X_U1         N00511 OUT N00205 N00199 OUT uA741
R_R1         N00496 N00511  10k  
R_R2         IN N00496  10k  
V_V2         N00205 0 5Vdc
R_R3         0 N00496  4.7k  
V_V3         0 N00199 5Vdc
C_C1         0 N00511  2.2n  

**** RESUMING freq_response.cir ****
.END

**** 02/11/08 14:34:28 ******* PSpice 10.5.0 (Jan 2005) ******* ID# 2089878865 
 ** Profile: "SCHEMATIC1-freq_response"  [ F:\PT8616\PSpice\LTC_filter\ltc_filter_test-pspicefiles\schematic1\freq_response.sim ] 


 ****     Diode MODEL PARAMETERS


******************************************************************************




               X_U1.dx         X_U1.dy         
          IS  800.000000E-18  800.000000E-18 
          RS    1               1.000000E-03 
         CJO                   10.000000E-12 


**** 02/11/08 14:34:28 ******* PSpice 10.5.0 (Jan 2005) ******* ID# 2089878865 
 ** Profile: "SCHEMATIC1-freq_response"  [ F:\PT8616\PSpice\LTC_filter\ltc_filter_test-pspicefiles\schematic1\freq_response.sim ] 


 ****     BJT MODEL PARAMETERS


******************************************************************************




               X_U1.qx         
               NPN             
       LEVEL    1            
          IS  800.000000E-18 
          BF   93.75         
          NF    1            
          BR    1            
          NR    1            
         ISS    0            
          RE    0            
          RC    0            
         CJE    0            
         VJE     .75         
         CJC    0            
         VJC     .75         
         MJC     .33         
        XCJC    1            
         CJS    0            
         VJS     .75         
          KF    0            
          AF    1            
          CN    2.42         
           D     .87         


**** 02/11/08 14:34:28 ******* PSpice 10.5.0 (Jan 2005) ******* ID# 2089878865 
 ** Profile: "SCHEMATIC1-freq_response"  [ F:\PT8616\PSpice\LTC_filter\ltc_filter_test-pspicefiles\schematic1\freq_response.sim ] 


 ****     SMALL SIGNAL BIAS SOLUTION       TEMPERATURE =   27.000 DEG C


******************************************************************************



 NODE   VOLTAGE     NODE   VOLTAGE     NODE   VOLTAGE     NODE   VOLTAGE


(   IN)    0.0000  (  OUT)    -.0010  (N00199)   -5.0000 (N00205)    5.0000     

(N00496)-254.9E-06 (N00511)    -.0011 (X_U1.6) 95.88E-09 (X_U1.7)    -.0010     

(X_U1.8)    -.0010 (X_U1.9)    0.0000 (X_U1.10)    -.6087                       

(X_U1.11)    4.9603                   (X_U1.12)    4.9603                       

(X_U1.13)    -.5948                   (X_U1.14)    -.5948                       

(X_U1.53)    4.0000                   (X_U1.54)   -4.0000                       

(X_U1.90) 79.77E-06                   (X_U1.91)   40.0000                       

(X_U1.92)  -40.0000                   (X_U1.99)    0.0000                   




    VOLTAGE SOURCE CURRENTS
    NAME         CURRENT

    V_V1        -2.549E-08
    V_V2        -5.656E-04
    V_V3        -5.658E-04
    X_U1.vb      9.588E-13
    X_U1.vc      4.002E-12
    X_U1.ve      4.092E-12
    X_U1.vlim    7.977E-08
    X_U1.vlp    -4.000E-11
    X_U1.vln    -4.000E-11

    TOTAL POWER DISSIPATION   5.66E-03  WATTS



          JOB CONCLUDED

**** 02/11/08 14:34:28 ******* PSpice 10.5.0 (Jan 2005) ******* ID# 2089878865 
 ** Profile: "SCHEMATIC1-freq_response"  [ F:\PT8616\PSpice\LTC_filter\ltc_filter_test-pspicefiles\schematic1\freq_response.sim ] 


 ****     JOB STATISTICS SUMMARY


******************************************************************************



  Total job time (using Solver 1)   =         .47
