
**** 11/19/03 10:19:16 *********** Evaluation PSpice (Nov 1999) **************

 * C:\PT-Trilevel\pspice\Output-amp.sch


 ****     CIRCUIT DESCRIPTION


******************************************************************************




* Schematics Version 9.1 - Web Update 1
* Wed Nov 19 10:19:13 2003



** Analysis setup **
.ac DEC 1000 10 10000K
.OP 


* From [PSPICE NETLIST] section of pspiceev.ini:
.lib "nom.lib"

.INC "Output-amp.net"

**** INCLUDING Output-amp.net ****
* Schematics Netlist *



V_V2         $N_0001 0 5V
V_V3         0 $N_0002 5V
V_V4         in 0 DC 0V AC 300mV 0
R_R1         $N_0003 out  22k  
R_R2         $N_0004 $N_0003  22k  
X_U1A         in $N_0003 $N_0001 $N_0002 out LM324
R_R3         0 $N_0004  1  
C_C3         $N_0003 out  8.2p  
C_C4         0 in  1.5p  
C_C5         0 $N_0003  1.5p  

**** RESUMING Output-amp.cir ****
.INC "Output-amp.als"



**** INCLUDING Output-amp.als ****
* Schematics Aliases *

.ALIASES
V_V2            V2(+=$N_0001 -=0 )
V_V3            V3(+=0 -=$N_0002 )
V_V4            V4(+=in -=0 )
R_R1            R1(1=$N_0003 2=out )
R_R2            R2(1=$N_0004 2=$N_0003 )
X_U1A           U1A(+=in -=$N_0003 V+=$N_0001 V-=$N_0002 OUT=out )
R_R3            R3(1=0 2=$N_0004 )
C_C3            C3(1=$N_0003 2=out )
C_C4            C4(1=0 2=in )
C_C5            C5(1=0 2=$N_0003 )
_    _(in=in)
_    _(out=out)
.ENDALIASES


**** RESUMING Output-amp.cir ****
.probe


.END

**** 11/19/03 10:19:16 *********** Evaluation PSpice (Nov 1999) **************

 * C:\PT-Trilevel\pspice\Output-amp.sch


 ****     Diode MODEL PARAMETERS


******************************************************************************




               X_U1A.dx        
          IS  800.000000E-18 
          RS    1            


**** 11/19/03 10:19:16 *********** Evaluation PSpice (Nov 1999) **************

 * C:\PT-Trilevel\pspice\Output-amp.sch


 ****     BJT MODEL PARAMETERS


******************************************************************************




               X_U1A.qx        
               PNP             
          IS  800.000000E-18 
          BF  166.7          
          NF    1            
          BR    1            
          NR    1            
          CN    2.2          
           D     .52         


**** 11/19/03 10:19:16 *********** Evaluation PSpice (Nov 1999) **************

 * C:\PT-Trilevel\pspice\Output-amp.sch


 ****     SMALL SIGNAL BIAS SOLUTION       TEMPERATURE =   27.000 DEG C


******************************************************************************



 NODE   VOLTAGE     NODE   VOLTAGE     NODE   VOLTAGE     NODE   VOLTAGE


(   in)    0.0000  (  out)    -.0014  ($N_0001)    5.0000                       

($N_0002)   -5.0000                   ($N_0003)-192.1E-06                       

($N_0004)-8.732E-09                   (X_U1A.6) 7.175E-06                       

(X_U1A.7)    -.0258                   (X_U1A.8)    -.0258                       

(X_U1A.9)    0.0000                   (X_U1A.10)     .6076                      

(X_U1A.11)   -4.9602                  (X_U1A.12)   -4.9604                      

(X_U1A.13)     .5937                  (X_U1A.14)     .5937                      

(X_U1A.53)    3.5000                  (X_U1A.54)   -4.3500                      

(X_U1A.90)    -.4883                  (X_U1A.91)   40.0000                      

(X_U1A.92)  -40.0000                  (X_U1A.99)    0.0000                  




    VOLTAGE SOURCE CURRENTS
    NAME         CURRENT

    V_V2        -1.116E-03
    V_V3        -1.116E-03
    V_V4         4.474E-08
    X_U1A.vb     7.175E-11
    X_U1A.vc     3.501E-12
    X_U1A.ve     4.349E-12
    X_U1A.vlim  -4.883E-04
    X_U1A.vlp   -4.049E-11
    X_U1A.vln   -3.952E-11

    TOTAL POWER DISSIPATION   1.12E-02  WATTS


**** 11/19/03 10:19:16 *********** Evaluation PSpice (Nov 1999) **************

 * C:\PT-Trilevel\pspice\Output-amp.sch


 ****     OPERATING POINT INFORMATION      TEMPERATURE =   27.000 DEG C


******************************************************************************






**** VOLTAGE-CONTROLLED CURRENT SOURCES


NAME         X_U1A.ga    X_U1A.gcm 
I-SOURCE     3.615E-08   3.622E-08


**** VOLTAGE-CONTROLLED VOLTAGE SOURCES


NAME         X_U1A.egnd
V-SOURCE     0.000E+00
I-SOURCE     4.884E-04


**** CURRENT-CONTROLLED CURRENT SOURCES


NAME         X_U1A.fb  
I-SOURCE     1.524E-03


**** CURRENT-CONTROLLED VOLTAGE SOURCES


NAME         X_U1A.hlim
V-SOURCE    -4.883E-01
I-SOURCE     9.768E-13


**** DIODES


NAME         X_U1A.dc    X_U1A.de    X_U1A.dlp   X_U1A.dln   X_U1A.dp  
MODEL        X_U1A.dx    X_U1A.dx    X_U1A.dx    X_U1A.dx    X_U1A.dx  
ID          -3.50E-12   -4.35E-12   -4.05E-11   -3.95E-11   -1.00E-11 
VD          -3.50E+00   -4.35E+00   -4.05E+01   -3.95E+01   -1.00E+01 
REQ          1.00E+12    1.00E+12    1.00E+12    1.00E+12    1.00E+12 
CAP          0.00E+00    0.00E+00    0.00E+00    0.00E+00    0.00E+00 


**** BIPOLAR JUNCTION TRANSISTORS


NAME         X_U1A.q1    X_U1A.q2  
MODEL        X_U1A.qx    X_U1A.qx  
IB          -4.50E-08   -4.47E-08 
IC          -7.50E-06   -7.46E-06 
VBE         -5.94E-01   -5.94E-01 
VBC          4.96E+00    4.96E+00 
VCE         -5.55E+00   -5.55E+00 
BETADC       1.67E+02    1.67E+02 
GM           2.90E-04    2.88E-04 
RPI          5.75E+05    5.78E+05 
RX           0.00E+00    0.00E+00 
RO           1.00E+12    1.00E+12 
CBE          0.00E+00    0.00E+00 
CBC          0.00E+00    0.00E+00 
CJS          0.00E+00    0.00E+00 
BETAAC       1.67E+02    1.67E+02 
CBX/CBX2     0.00E+00    0.00E+00 
FT/FT2       4.61E+15    4.59E+15 



          JOB CONCLUDED

          TOTAL JOB TIME             .75
